!Keysight Technologies,N5247A,US51370522,A.10.65.04
!Date: Monday, December 21, 2020 12:55:37
!Correction: S11(Full 2 Port(1,2)) 
!S21(Full 2 Port(1,2)) 
!S12(Full 2 Port(1,2)) 
!S22(Full 2 Port(1,2)) 
!S2P File: Measurements: S11, S21, S12, S22:
# Hz S  dB   R 50
850000000 -24.40526 -126.29903 -0.70871627 -109.44118 -0.71237499 -109.42606 -27.865295 109.66489
850167968.75 -24.359875 -126.24814 -0.70528722 -109.44209 -0.71429551 -109.45161 -27.812222 109.55687
850335937.5 -24.394644 -126.8057 -0.70353681 -109.49892 -0.71134979 -109.48837 -27.851576 109.15424
850503906.25 -24.308958 -126.741 -0.71077859 -109.51517 -0.71891004 -109.51414 -27.96142 109.78703
850671875 -24.266594 -126.642 -0.71063358 -109.50322 -0.71426564 -109.5685 -27.919165 110.10876
850839843.75 -24.359106 -126.13313 -0.7121647 -109.58458 -0.71232796 -109.53049 -27.907305 109.53967
851007812.5 -24.361288 -126.41607 -0.70666206 -109.61209 -0.71600986 -109.53938 -27.906549 109.38616
851175781.25 -24.293587 -126.7756 -0.70949644 -109.60469 -0.71558022 -109.60136 -27.8097 109.54135
851343750 -24.257757 -126.34996 -0.7084015 -109.63413 -0.71864372 -109.60192 -27.889011 110.32928
851511718.75 -24.386103 -127.11126 -0.71405888 -109.63719 -0.71451414 -109.63223 -27.699387 109.63235
851679687.5 -24.323284 -127.21088 -0.71355087 -109.63739 -0.71048057 -109.63847 -27.693869 109.34383
851847656.25 -24.314156 -126.94473 -0.71056467 -109.67738 -0.71857357 -109.69426 -27.733486 109.2925
852015625 -24.245428 -126.72616 -0.71303105 -109.67138 -0.71004486 -109.70087 -27.696207 109.3199
852183593.75 -24.334572 -126.87495 -0.71088266 -109.71784 -0.71194243 -109.70065 -27.688906 109.33301
852351562.5 -24.26082 -127.02245 -0.7161234 -109.76196 -0.71188253 -109.72524 -27.643999 109.96545
852519531.25 -24.342777 -126.7673 -0.70987004 -109.75227 -0.71175379 -109.73701 -27.678356 109.97347
852687500 -24.408751 -127.45488 -0.71093827 -109.78806 -0.71395272 -109.76193 -27.762878 109.32443
852855468.75 -24.34646 -127.52286 -0.71567941 -109.81355 -0.71585095 -109.76661 -27.816685 109.27216
853023437.5 -24.305796 -126.87861 -0.71148837 -109.82856 -0.7077769 -109.79443 -27.778389 108.95399
853191406.25 -24.29805 -126.86446 -0.71301377 -109.8483 -0.70764971 -109.83135 -27.78191 109.97973
853359375 -24.370319 -127.32112 -0.71463484 -109.8601 -0.71459931 -109.84044 -27.634747 109.99649
853527343.75 -24.336351 -127.14157 -0.71413529 -109.86005 -0.71729028 -109.88567 -27.652191 109.46381
853695312.5 -24.238558 -127.41686 -0.71636719 -109.89117 -0.71382594 -109.91207 -27.597927 109.88822
853863281.25 -24.252634 -127.39918 -0.71412975 -109.90784 -0.71441936 -109.92838 -27.654736 108.75948
854031250 -24.251852 -127.35425 -0.71785969 -109.95798 -0.71057963 -109.91266 -27.711123 108.70958
854199218.75 -24.198895 -127.33511 -0.71402103 -109.99238 -0.71397769 -109.94814 -27.722668 108.52174
854367187.5 -24.24885 -127.92751 -0.71361715 -109.96241 -0.71720654 -109.99194 -27.568199 108.47795
854535156.25 -24.380335 -127.61671 -0.71027702 -110.02811 -0.71584356 -110.03516 -27.72592 109.70274
854703125 -24.29071 -127.91406 -0.70914978 -110.0201 -0.71473253 -110.07201 -27.614561 107.73571
854871093.75 -24.267513 -127.77328 -0.70864981 -110.04261 -0.71646249 -110.05096 -27.761986 108.76792
855039062.5 -24.277651 -127.39961 -0.71042228 -110.07696 -0.71760488 -110.07507 -27.70294 109.77916
855207031.25 -24.303122 -128.09416 -0.71318418 -110.05932 -0.71243501 -110.08776 -27.708368 109.03874
855375000 -24.253672 -127.4296 -0.71303988 -110.12824 -0.71687496 -110.11942 -27.537338 109.05236
855542968.75 -24.274178 -127.40856 -0.71518683 -110.11794 -0.71402168 -110.11792 -27.658936 108.33228
855710937.5 -24.325321 -127.74741 -0.71418381 -110.16138 -0.71290171 -110.13834 -27.715845 109.58619
855878906.25 -24.285984 -127.93477 -0.7070033 -110.19833 -0.72086936 -110.16457 -27.774435 108.76659
856046875 -24.317719 -128.13608 -0.7085669 -110.17638 -0.71736705 -110.17857 -27.540541 107.58607
856214843.75 -24.252981 -128.05174 -0.716178 -110.19386 -0.71669924 -110.21749 -27.590321 109.29664
856382812.5 -24.272911 -128.05627 -0.71954143 -110.21779 -0.71250939 -110.27849 -27.541481 108.61604
856550781.25 -24.318012 -128.35724 -0.71416688 -110.23182 -0.71190214 -110.25895 -27.41119 108.89871
856718750 -24.308559 -127.76303 -0.71303135 -110.27415 -0.71256769 -110.2895 -27.474995 108.8026
856886718.75 -24.288227 -127.81105 -0.71168315 -110.33475 -0.71959823 -110.3087 -27.48313 110.22002
857054687.5 -24.310804 -128.37463 -0.71327925 -110.31517 -0.71679747 -110.29839 -27.603588 109.26073
857222656.25 -24.374029 -128.56491 -0.71076125 -110.32787 -0.71915632 -110.30576 -27.552212 109.30512
857390625 -24.329966 -128.60513 -0.7105037 -110.33879 -0.71961212 -110.35439 -27.643375 108.96333
857558593.75 -24.271149 -127.659 -0.7129299 -110.40916 -0.72047168 -110.36282 -27.542637 108.24595
857726562.5 -24.32889 -128.4214 -0.71646821 -110.41589 -0.71794385 -110.41976 -27.60902 108.31509
857894531.25 -24.281736 -127.88412 -0.71447176 -110.42766 -0.71495783 -110.41309 -27.592735 108.47321
858062500 -24.330894 -128.11513 -0.71216708 -110.46082 -0.71930397 -110.4463 -27.606121 108.09415
858230468.75 -24.24518 -128.02768 -0.71902323 -110.46198 -0.71748066 -110.48086 -27.609659 108.65739
858398437.5 -24.282915 -128.41959 -0.71964836 -110.48154 -0.71384317 -110.4833 -27.501492 108.05276
858566406.25 -24.285892 -128.58537 -0.71845311 -110.5155 -0.71262443 -110.50973 -27.391376 108.3363
858734375 -24.279995 -128.26176 -0.71471113 -110.55212 -0.72091436 -110.51102 -27.456045 109.94954
858902343.75 -24.305054 -128.6785 -0.71130502 -110.56735 -0.71617711 -110.54295 -27.478153 108.71808
859070312.5 -24.326025 -128.18901 -0.71827692 -110.5642 -0.71744573 -110.56538 -27.39784 109.31108
859238281.25 -24.272074 -128.96989 -0.71580952 -110.59806 -0.71450764 -110.57257 -27.457218 108.89117
859406250 -24.29599 -128.69864 -0.71461248 -110.60709 -0.72030795 -110.59142 -27.429018 107.93282
859574218.75 -24.25773 -128.60124 -0.71285284 -110.65648 -0.71612149 -110.61774 -27.425272 108.38506
859742187.5 -24.281412 -128.95963 -0.71982467 -110.62933 -0.71455288 -110.65465 -27.493349 109.53447
859910156.25 -24.376432 -128.88196 -0.7145403 -110.64143 -0.71780574 -110.63712 -27.410881 108.00105
860078125 -24.271458 -129.32954 -0.71678102 -110.70872 -0.71763885 -110.67816 -27.460142 108.12382
860246093.75 -24.309034 -128.59573 -0.71212822 -110.70065 -0.71347696 -110.73076 -27.534832 108.74724
860414062.5 -24.292919 -128.8907 -0.71200407 -110.7156 -0.7167362 -110.73061 -27.523306 108.55636
860582031.25 -24.276419 -128.64049 -0.71711153 -110.7649 -0.71665376 -110.77131 -27.567659 108.39137
860750000 -24.277365 -129.04655 -0.71696043 -110.78467 -0.71544558 -110.77518 -27.370527 108.03499
860917968.75 -24.270185 -128.92902 -0.70915997 -110.78407 -0.71611869 -110.77797 -27.477276 107.47939
861085937.5 -24.292738 -128.99397 -0.71458602 -110.79385 -0.7195316 -110.81168 -27.467552 108.97785
861253906.25 -24.366863 -129.35811 -0.71759963 -110.83265 -0.71094972 -110.82799 -27.496965 108.34268
861421875 -24.310755 -128.72975 -0.71031153 -110.88615 -0.71370852 -110.85809 -27.460537 108.31548
861589843.75 -24.22377 -129.62051 -0.71636629 -110.8658 -0.71997893 -110.85717 -27.361736 107.87613
861757812.5 -24.288321 -128.78354 -0.71197277 -110.87866 -0.71697181 -110.89572 -27.356951 108.40353
861925781.25 -24.34613 -128.80879 -0.71257561 -110.94741 -0.71690756 -110.92674 -27.374109 107.94467
862093750 -24.242796 -129.79561 -0.7134394 -110.95175 -0.71909916 -110.93862 -27.315857 108.14336
862261718.75 -24.182871 -129.54233 -0.71382809 -110.97819 -0.71770227 -110.98602 -27.368032 107.54221
862429687.5 -24.228544 -129.59375 -0.71529043 -111.00198 -0.71181196 -110.96164 -27.401588 107.84547
862597656.25 -24.288752 -129.56825 -0.71336478 -111.01015 -0.71144563 -111.01099 -27.409376 108.50333
862765625 -24.275501 -129.52388 -0.7158916 -111.04212 -0.71690601 -111.02058 -27.354891 108.57465
862933593.75 -24.266247 -129.95163 -0.72004265 -111.04812 -0.71669358 -111.03969 -27.437586 108.52425
863101562.5 -24.216518 -130.07729 -0.71698439 -111.06049 -0.7184391 -111.04751 -27.301266 108.18994
863269531.25 -24.179264 -129.84947 -0.71296686 -111.10184 -0.71931875 -111.12997 -27.347193 107.98397
863437500 -24.300774 -129.95006 -0.71720928 -111.09708 -0.7111249 -111.11532 -27.363914 106.62488
863605468.75 -24.308935 -129.74069 -0.71636909 -111.1237 -0.71240371 -111.12091 -27.24733 107.83427
863773437.5 -24.322504 -129.64868 -0.71453202 -111.13743 -0.71825951 -111.15462 -27.337395 108.03969
863941406.25 -24.257921 -130.05977 -0.71292955 -111.19205 -0.72075152 -111.13876 -27.350069 108.38843
864109375 -24.28994 -130.16286 -0.71349579 -111.19499 -0.71971428 -111.16107 -27.372522 106.84628
864277343.75 -24.221502 -129.66913 -0.71318221 -111.21656 -0.71865523 -111.21626 -27.295315 107.94057
864445312.5 -24.261103 -130.10228 -0.71922016 -111.26146 -0.71142405 -111.24241 -27.201881 108.01154
864613281.25 -24.287378 -129.49962 -0.71572173 -111.2519 -0.71614283 -111.25902 -27.194906 107.48986
864781250 -24.269056 -130.12959 -0.71166164 -111.34412 -0.71843773 -111.26076 -27.302202 108.25227
864949218.75 -24.279665 -129.40471 -0.71224976 -111.31445 -0.72015476 -111.27908 -27.222244 107.18298
865117187.5 -24.24733 -129.66525 -0.70900655 -111.3102 -0.72395498 -111.34097 -27.285984 106.71623
865285156.25 -24.335333 -129.58698 -0.71095639 -111.33561 -0.72091883 -111.34306 -27.251867 107.40894
865453125 -24.259064 -130.36014 -0.72134846 -111.38901 -0.71089447 -111.36179 -27.335028 107.59445
865621093.75 -24.257542 -130.52451 -0.7183314 -111.39931 -0.71357745 -111.35167 -27.233179 107.91642
865789062.5 -24.205441 -130.03017 -0.71079499 -111.43224 -0.71300113 -111.38832 -27.356487 107.3309
865957031.25 -24.309069 -130.38368 -0.7165426 -111.40394 -0.71283197 -111.42354 -27.24354 106.94198
866125000 -24.330393 -130.12172 -0.71392256 -111.42818 -0.71332663 -111.45681 -27.158024 107.91395
866292968.75 -24.301233 -130.46608 -0.72354639 -111.43725 -0.71272779 -111.44981 -27.178816 107.46267
866460937.5 -24.287109 -130.7587 -0.71647292 -111.47341 -0.71835029 -111.49181 -27.066059 107.68806
866628906.25 -24.358438 -130.03595 -0.71176529 -111.51233 -0.71387523 -111.49064 -27.155302 106.94601
866796875 -24.203953 -130.21318 -0.71278274 -111.50542 -0.7197482 -111.53382 -27.339159 106.99745
866964843.75 -24.195709 -129.90157 -0.71716642 -111.54239 -0.71878433 -111.55056 -27.24012 107.83315
867132812.5 -24.279146 -130.3485 -0.71743512 -111.54457 -0.72266352 -111.58011 -27.091726 107.98192
867300781.25 -24.306509 -130.54388 -0.71277988 -111.57006 -0.72141832 -111.59569 -27.141586 107.49583
867468750 -24.201359 -131.03827 -0.71693009 -111.60794 -0.7177372 -111.60163 -27.246302 107.1198
867636718.75 -24.36879 -130.224 -0.71616811 -111.67124 -0.71145719 -111.60657 -27.256884 106.62267
867804687.5 -24.297787 -130.27008 -0.70815867 -111.64991 -0.71999919 -111.64098 -27.131876 106.07608
867972656.25 -24.254484 -130.57579 -0.71064705 -111.66104 -0.72387761 -111.65889 -27.044949 107.16887
868140625 -24.278236 -129.9935 -0.71437013 -111.73227 -0.71598351 -111.69179 -27.100056 107.17901
868308593.75 -24.170366 -130.75488 -0.71358389 -111.75392 -0.71743447 -111.72659 -27.154417 107.26582
868476562.5 -24.250591 -130.76741 -0.71162671 -111.731 -0.71877623 -111.75137 -27.142933 106.69485
868644531.25 -24.232746 -130.43535 -0.7062071 -111.75874 -0.71826458 -111.74586 -27.053308 106.63612
868812500 -24.184277 -131.46786 -0.71866387 -111.78638 -0.71851665 -111.75163 -27.057039 106.52492
868980468.75 -24.262131 -131.26799 -0.71467513 -111.79456 -0.71747702 -111.78795 -27.11624 106.7048
869148437.5 -24.240376 -130.82895 -0.71517372 -111.81107 -0.7202909 -111.8415 -27.124054 107.01548
869316406.25 -24.281042 -130.9115 -0.71566761 -111.84944 -0.72013664 -111.83815 -27.106928 107.27601
869484375 -24.230047 -131.11017 -0.71138352 -111.85417 -0.72354257 -111.84457 -27.036024 106.36484
869652343.75 -24.211163 -130.92349 -0.71677285 -111.89488 -0.7167542 -111.86444 -27.099302 107.16336
869820312.5 -24.22806 -130.78154 -0.70961946 -111.90582 -0.72072631 -111.90932 -27.061277 107.2275
869988281.25 -24.19553 -131.89233 -0.71077186 -111.9136 -0.7174899 -111.90832 -27.004253 107.26073
870156250 -24.272127 -131.52397 -0.71721727 -111.93713 -0.71000087 -111.92622 -27.036879 106.33141
870324218.75 -24.301098 -131.40508 -0.71392006 -111.97359 -0.71745402 -111.94257 -27.0644 106.5313
870492187.5 -24.333437 -131.04575 -0.71056288 -111.97022 -0.71642828 -111.98649 -27.105602 106.63109
870660156.25 -24.308372 -130.9261 -0.70982391 -111.99373 -0.71727788 -112.03063 -27.09594 106.73642
870828125 -24.333498 -131.44299 -0.71839863 -112.04401 -0.71336347 -112.02831 -27.069708 107.06133
870996093.75 -24.236826 -131.46909 -0.71661663 -112.04948 -0.71378011 -112.03999 -27.086061 105.76334
871164062.5 -24.171259 -131.63542 -0.71165305 -112.09467 -0.71449709 -112.06656 -27.0767 106.35366
871332031.25 -24.222525 -131.73851 -0.714508 -112.06625 -0.71812737 -112.07787 -27.048845 106.58153
871500000 -24.281996 -131.39417 -0.71145535 -112.13386 -0.71954048 -112.13219 -26.890383 106.00588
871667968.75 -24.268162 -132.36542 -0.71340829 -112.10909 -0.71505004 -112.13871 -26.965866 105.7394
871835937.5 -24.158733 -131.67383 -0.71516281 -112.16577 -0.7175526 -112.16418 -27.050848 106.34707
872003906.25 -24.263498 -131.64565 -0.71803784 -112.16116 -0.71530491 -112.16708 -26.851736 105.94917
872171875 -24.2663 -131.32162 -0.71624076 -112.21967 -0.71702331 -112.19849 -26.858143 106.71998
872339843.75 -24.267109 -131.23708 -0.70889783 -112.2328 -0.71951431 -112.21496 -26.924097 106.42478
872507812.5 -24.253511 -132.43378 -0.71326452 -112.2263 -0.71936315 -112.23648 -26.922758 107.00163
872675781.25 -24.150993 -132.40485 -0.71653372 -112.27998 -0.71722227 -112.26269 -26.989079 106.76628
872843750 -24.201256 -131.82986 -0.72076422 -112.28558 -0.71449113 -112.2915 -26.949455 106.75455
873011718.75 -24.245981 -131.63306 -0.71188271 -112.33372 -0.71714354 -112.3259 -27.045399 106.42774
873179687.5 -24.313482 -131.82233 -0.70600373 -112.33712 -0.71540308 -112.32928 -26.888214 105.74124
873347656.25 -24.241533 -132.25107 -0.71756911 -112.33129 -0.7127189 -112.36654 -26.82864 105.34101
873515625 -24.331129 -132.33745 -0.71636069 -112.38741 -0.71325809 -112.34532 -26.966501 105.69203
873683593.75 -24.291168 -132.20035 -0.71046978 -112.39713 -0.71689469 -112.36579 -26.941502 105.98719
873851562.5 -24.262629 -131.81087 -0.71264017 -112.40828 -0.71698207 -112.40307 -26.959032 105.4753
874019531.25 -24.277725 -132.62802 -0.71577686 -112.42275 -0.71343648 -112.40636 -26.986721 105.46619
874187500 -24.183844 -132.32277 -0.71206355 -112.4411 -0.71344048 -112.43909 -26.885715 105.84284
874355468.75 -24.29557 -132.25964 -0.71698695 -112.48719 -0.71461272 -112.47499 -26.953564 105.65327
874523437.5 -24.272354 -132.15311 -0.71113437 -112.50706 -0.71567869 -112.51754 -26.976587 105.34996
874691406.25 -24.252863 -132.21272 -0.70946848 -112.50446 -0.71724856 -112.52202 -26.890383 105.56707
874859375 -24.247301 -131.8934 -0.71727073 -112.54586 -0.71274269 -112.53778 -26.90946 105.74619
875027343.75 -24.208792 -132.63557 -0.71720499 -112.57777 -0.71762365 -112.56173 -26.926836 105.88056
875195312.5 -24.275354 -132.14201 -0.71490526 -112.58642 -0.71734673 -112.58015 -26.961153 106.00522
875363281.25 -24.325056 -132.93913 -0.71671647 -112.5835 -0.72131205 -112.57896 -26.910826 105.97166
875531250 -24.257292 -132.68124 -0.71454901 -112.60979 -0.71696675 -112.59946 -26.929707 105.98389
875699218.75 -24.27331 -132.17606 -0.71263993 -112.64033 -0.71622521 -112.64772 -26.869959 105.26955
875867187.5 -24.225132 -132.36281 -0.71447915 -112.66815 -0.71346849 -112.66599 -26.851139 105.3524
876035156.25 -24.326904 -132.59882 -0.71372193 -112.66933 -0.71535778 -112.65585 -26.790174 104.48708
876203125 -24.287302 -132.58794 -0.71935314 -112.70711 -0.72043645 -112.68544 -26.749128 105.51591
876371093.75 -24.310717 -132.72888 -0.71572363 -112.7461 -0.72044694 -112.71047 -26.770077 105.41053
876539062.5 -24.277277 -132.28465 -0.71325862 -112.75622 -0.7158947 -112.74335 -26.934137 105.8544
876707031.25 -24.277094 -132.43645 -0.7111606 -112.78663 -0.71453834 -112.74025 -26.923092 104.57005
876875000 -24.241724 -132.60857 -0.7157836 -112.79622 -0.71785104 -112.78487 -26.846054 105.61736
877042968.75 -24.214022 -132.88017 -0.7162925 -112.83051 -0.7202493 -112.80677 -26.813812 105.63226
877210937.5 -24.32284 -132.86313 -0.71270466 -112.85949 -0.7210871 -112.82381 -26.846909 105.2332
877378906.25 -24.284397 -132.89336 -0.71176249 -112.85502 -0.72283435 -112.84795 -26.749311 105.30893
877546875 -24.235603 -132.47583 -0.71830809 -112.8949 -0.72340304 -112.85213 -26.60944 105.34366
877714843.75 -24.262213 -132.74997 -0.71871793 -112.91862 -0.72026062 -112.89667 -26.703653 105.80889
877882812.5 -24.309471 -133.14122 -0.71464014 -112.89972 -0.71920317 -112.92971 -26.708307 105.73669
878050781.25 -24.212402 -133.09593 -0.71779346 -112.95448 -0.71605456 -112.96078 -26.84177 105.51183
878218750 -24.218622 -133.18291 -0.72013408 -112.96159 -0.71936494 -112.9353 -26.780209 105.4406
878386718.75 -24.224552 -133.06314 -0.72143948 -112.94093 -0.71533322 -112.98894 -26.809416 104.35772
878554687.5 -24.209026 -132.7943 -0.7186451 -113.01865 -0.72217226 -112.99146 -26.729622 104.69267
878722656.25 -24.235641 -133.13699 -0.71682417 -113.04043 -0.71660757 -113.03084 -26.81934 105.10735
878890625 -24.250557 -132.67517 -0.71579385 -113.05495 -0.71789992 -113.02411 -26.76762 106.00851
879058593.75 -24.291882 -132.88205 -0.71350521 -113.03625 -0.71559697 -113.04934 -26.689436 104.61561
879226562.5 -24.273901 -132.92551 -0.71592891 -113.0949 -0.7172004 -113.08825 -26.748226 104.88331
879394531.25 -24.179657 -133.22723 -0.71927267 -113.11273 -0.72188544 -113.1117 -26.820602 104.84641
879562500 -24.174791 -133.42401 -0.71857554 -113.13538 -0.7203666 -113.14747 -26.76874 104.49333
879730468.75 -24.230234 -133.55283 -0.71775204 -113.14422 -0.71662301 -113.14413 -26.738535 104.88141
879898437.5 -24.237442 -133.0509 -0.7186783 -113.18805 -0.71326309 -113.16639 -26.665491 104.98489
880066406.25 -24.255129 -134.01889 -0.71873373 -113.16243 -0.71368814 -113.20569 -26.711191 103.96699
880234375 -24.320007 -133.42059 -0.71940047 -113.20651 -0.71961308 -113.21277 -26.637928 105.05809
880402343.75 -24.189157 -133.55647 -0.71712816 -113.23721 -0.71311623 -113.20322 -26.619303 104.0853
880570312.5 -24.180962 -133.50821 -0.71971375 -113.24637 -0.71755546 -113.24449 -26.57391 104.57433
880738281.25 -24.25045 -133.42453 -0.71887565 -113.28706 -0.71688378 -113.28182 -26.560812 105.39335
880906250 -24.231106 -133.7661 -0.71642935 -113.31332 -0.70978379 -113.31384 -26.755718 104.93384
881074218.75 -24.271297 -134.32693 -0.71415555 -113.30367 -0.71479553 -113.31721 -26.62394 104.90643
881242187.5 -24.269743 -133.86545 -0.71374965 -113.32866 -0.71610594 -113.34959 -26.593931 104.10351
881410156.25 -24.296759 -133.69734 -0.71601963 -113.38275 -0.7198754 -113.36877 -26.684301 104.49195
881578125 -24.353928 -133.28378 -0.71338344 -113.40144 -0.71757281 -113.40224 -26.58577 104.53294
881746093.75 -24.353916 -133.59792 -0.70800418 -113.41176 -0.72057927 -113.40624 -26.626785 104.28081
881914062.5 -24.324196 -133.59862 -0.71366984 -113.44596 -0.71693766 -113.41161 -26.639572 105.07181
882082031.25 -24.301277 -133.88638 -0.71676069 -113.48201 -0.71824807 -113.42274 -26.569462 104.7172
882250000 -24.211752 -133.65169 -0.71902633 -113.50562 -0.72217172 -113.46686 -26.69228 103.94878
882417968.75 -24.288202 -133.17776 -0.71642733 -113.50116 -0.71886581 -113.50854 -26.619276 103.85873
882585937.5 -24.269903 -133.34953 -0.71627164 -113.5284 -0.71803027 -113.52221 -26.677935 103.92999
